T1628 000:049.009   SEGGER J-Link V7.94b Log File
T1628 000:049.113   DLL Compiled: Dec 13 2023 16:59:46
T1628 000:049.117   Logging started @ 2023-12-29 17:18
T1628 000:049.121   Process: D:\Keil_V5\UV4\UV4.exe
T1628 000:049.126 - 49.124ms
T1628 000:049.134 JLINK_SetWarnOutHandler(...)
T1628 000:049.137 - 0.004ms
T1628 000:049.141 JLINK_OpenEx(...)
T1628 000:062.618   Firmware: J-Link ARM-OB STM32 compiled Aug 22 2012 19:52:04
T1628 000:063.184   Firmware: J-Link ARM-OB STM32 compiled Aug 22 2012 19:52:04
T1628 000:064.884   Hardware: V7.00
T1628 000:064.895   S/N: 20090928
T1628 000:064.901   OEM: SEGGER
T1628 000:064.907   Feature(s): RDI,FlashDL,FlashBP,JFlash,GDB
T1628 000:065.082   Bootloader: (Could not read)
T1628 000:072.233   TELNET listener socket opened on port 19021
T1628 000:072.318   WEBSRV WEBSRV_Init(): Starting webserver thread(s)
T1628 000:072.382   WEBSRV Failed to put socket into listener state (port 19080)
T1628 000:072.435   WEBSRV Webserver running on local port 19081
T1628 000:072.509   Looking for J-Link GUI Server exe at: D:\Keil_V5\ARM\Segger\JLinkGUIServer.exe
T1628 000:072.577   Looking for J-Link GUI Server exe at: C:\Program Files\SEGGER\JLink_V794b\JLinkGUIServer.exe
T1628 000:072.603   Forking J-Link GUI Server: C:\Program Files\SEGGER\JLink_V794b\JLinkGUIServer.exe
T1628 000:075.050   J-Link GUI Server info: "J-Link GUI server V7.94b "
T1628 000:075.564 - 26.416ms returns "O.K."
T1628 000:075.580 JLINK_GetEmuCaps()
T1628 000:075.585 - 0.004ms returns 0x88EA5833
T1628 000:075.593 JLINK_TIF_GetAvailable(...)
T1628 000:075.807 - 0.214ms
T1628 000:075.826 JLINK_SetErrorOutHandler(...)
T1628 000:075.831 - 0.004ms
T1628 000:075.846 JLINK_ExecCommand("ProjectFile = "D:\GIT\nRF5_SDK_17.0.2_d674dde\examples\ble_peripheral\ble_app_uart - Copy\pca10056\s140\arm5_no_packs\JLinkSettings.ini"", ...). 
T1628 000:095.523   Ref file found at: D:\Keil_V5\ARM\Segger\JLinkDevices.ref
T1628 000:095.601   REF file references invalid XML file: C:\Program Files\SEGGER\JLink_V794b\JLinkDevices.xml
T1628 000:096.486 - 20.640ms returns 0x00
T1628 000:097.849 JLINK_ExecCommand("Device = nRF52840_xxAA", ...). 
T1628 000:099.027   Device "NRF52840_XXAA" selected.
T1628 000:099.241 - 1.378ms returns 0x00
T1628 000:099.250 JLINK_ExecCommand("DisableConnectionTimeout", ...). 
T1628 000:099.257 - 0.001ms returns 0x01
T1628 000:099.262 JLINK_GetHardwareVersion()
T1628 000:099.268 - 0.004ms returns 70000
T1628 000:099.274 JLINK_GetDLLVersion()
T1628 000:099.278 - 0.003ms returns 79402
T1628 000:099.283 JLINK_GetOEMString(...)
T1628 000:099.287 JLINK_GetFirmwareString(...)
T1628 000:099.291 - 0.003ms
T1628 000:110.351 JLINK_GetDLLVersion()
T1628 000:110.366 - 0.014ms returns 79402
T1628 000:110.371 JLINK_GetCompileDateTime()
T1628 000:110.374 - 0.003ms
T1628 000:112.092 JLINK_GetFirmwareString(...)
T1628 000:112.105 - 0.013ms
T1628 000:113.671 JLINK_GetHardwareVersion()
T1628 000:113.682 - 0.011ms returns 70000
T1628 000:114.724 JLINK_GetSN()
T1628 000:114.734 - 0.010ms returns 20090928
T1628 000:115.721 JLINK_GetOEMString(...)
T1628 000:118.129 JLINK_TIF_Select(JLINKARM_TIF_SWD)
T1628 000:118.644 - 0.516ms returns 0x00
T1628 000:118.652 JLINK_HasError()
T1628 000:118.662 JLINK_SetSpeed(5000)
T1628 000:118.901 - 0.240ms
T1628 000:118.916 JLINK_GetId()
T1628 000:120.382   InitTarget() start
T1628 000:120.394    J-Link Script File: Executing InitTarget()
T1628 000:126.472   InitTarget() end - Took 4.38ms
T1628 000:129.253   Found SW-DP with ID 0x2BA01477
T1628 000:132.296   Old FW that does not support reading DPIDR via DAP jobs
T1628 000:136.233   DPv0 detected
T1628 000:137.591   CoreSight SoC-400 or earlier
T1628 000:139.468   Scanning AP map to find all available APs
T1628 000:143.339   AP[2]: Stopped AP scan as end of AP map has been reached
T1628 000:144.316   AP[0]: AHB-AP (IDR: 0x24770011)
T1628 000:145.281   AP[1]: JTAG-AP (IDR: 0x02880000)
T1628 000:146.217   Iterating through AP map to find AHB-AP to use
T1628 000:150.369   AP[0]: Core found
T1628 000:151.423   AP[0]: AHB-AP ROM base: 0xE00FF000
T1628 000:153.970   CPUID register: 0x410FC241. Implementer code: 0x41 (ARM)
T1628 000:155.056   Found Cortex-M4 r0p1, Little endian.
T1628 000:155.352   -- Max. mem block: 0x00002C08
T1628 000:155.763   CPU_ReadMem(4 bytes @ 0xE000EDF0)
T1628 000:156.221   CPU_ReadMem(4 bytes @ 0xE0002000)
T1628 000:157.655   FPUnit: 6 code (BP) slots and 2 literal slots
T1628 000:157.667   CPU_ReadMem(4 bytes @ 0xE000EDFC)
T1628 000:158.056   CPU_ReadMem(4 bytes @ 0xE0001000)
T1628 000:158.502   CPU_WriteMem(4 bytes @ 0xE0001000)
T1628 000:158.931   CPU_ReadMem(4 bytes @ 0xE000ED88)
T1628 000:159.372   CPU_WriteMem(4 bytes @ 0xE000ED88)
T1628 000:159.834   CPU_ReadMem(4 bytes @ 0xE000ED88)
T1628 000:160.308   CPU_WriteMem(4 bytes @ 0xE000ED88)
T1628 000:161.919   CoreSight components:
T1628 000:163.023   ROMTbl[0] @ E00FF000
T1628 000:163.035   CPU_ReadMem(64 bytes @ 0xE00FF000)
T1628 000:164.093   CPU_ReadMem(32 bytes @ 0xE000EFE0)
T1628 000:165.977   [0][0]: E000E000 CID B105E00D PID 000BB00C SCS-M7
T1628 000:165.991   CPU_ReadMem(32 bytes @ 0xE0001FE0)
T1628 000:167.820   [0][1]: E0001000 CID B105E00D PID 003BB002 DWT
T1628 000:167.833   CPU_ReadMem(32 bytes @ 0xE0002FE0)
T1628 000:169.901   [0][2]: E0002000 CID B105E00D PID 002BB003 FPB
T1628 000:169.915   CPU_ReadMem(32 bytes @ 0xE0000FE0)
T1628 000:171.882   [0][3]: E0000000 CID B105E00D PID 003BB001 ITM
T1628 000:171.897   CPU_ReadMem(32 bytes @ 0xE0040FE0)
T1628 000:173.877   [0][4]: E0040000 CID B105900D PID 000BB9A1 TPIU
T1628 000:173.891   CPU_ReadMem(32 bytes @ 0xE0041FE0)
T1628 000:175.727   [0][5]: E0041000 CID B105900D PID 000BB925 ETM
T1628 000:176.044 - 57.127ms returns 0x2BA01477
T1628 000:176.059 JLINK_GetDLLVersion()
T1628 000:176.062 - 0.003ms returns 79402
T1628 000:176.067 JLINK_CORE_GetFound()
T1628 000:176.071 - 0.003ms returns 0xE0000FF
T1628 000:176.075 JLINK_GetDebugInfo(0x100 = JLINKARM_ROM_TABLE_ADDR_INDEX)
T1628 000:176.079   Value=0xE00FF000
T1628 000:176.084 - 0.009ms returns 0
T1628 000:177.165 JLINK_GetDebugInfo(0x100 = JLINKARM_ROM_TABLE_ADDR_INDEX)
T1628 000:177.174   Value=0xE00FF000
T1628 000:177.179 - 0.014ms returns 0
T1628 000:177.184 JLINK_GetDebugInfo(0x101 = JLINKARM_DEBUG_INFO_ETM_ADDR_INDEX)
T1628 000:177.187   Value=0xE0041000
T1628 000:177.192 - 0.008ms returns 0
T1628 000:177.199 JLINK_ReadMemEx(0xE0041FD0, 0x20 Bytes, Flags = 0x02000004)
T1628 000:177.214   CPU_ReadMem(32 bytes @ 0xE0041FD0)
T1628 000:178.139   Data:  04 00 00 00 00 00 00 00 00 00 00 00 00 00 00 00 ...
T1628 000:178.148 - 0.949ms returns 32 (0x20)
T1628 000:178.154 JLINK_GetDebugInfo(0x102 = JLINKARM_DEBUG_INFO_MTB_ADDR_INDEX)
T1628 000:178.158   Value=0x00000000
T1628 000:178.163 - 0.008ms returns 0
T1628 000:178.167 JLINK_GetDebugInfo(0x103 = JLINKARM_DEBUG_INFO_TPIU_ADDR_INDEX)
T1628 000:178.171   Value=0xE0040000
T1628 000:178.175 - 0.008ms returns 0
T1628 000:178.179 JLINK_GetDebugInfo(0x104 = JLINKARM_DEBUG_INFO_ITM_ADDR_INDEX)
T1628 000:178.182   Value=0xE0000000
T1628 000:178.187 - 0.007ms returns 0
T1628 000:178.191 JLINK_GetDebugInfo(0x105 = JLINKARM_DEBUG_INFO_DWT_ADDR_INDEX)
T1628 000:178.194   Value=0xE0001000
T1628 000:178.199 - 0.008ms returns 0
T1628 000:178.203 JLINK_GetDebugInfo(0x106 = JLINKARM_DEBUG_INFO_FPB_ADDR_INDEX)
T1628 000:178.206   Value=0xE0002000
T1628 000:178.211 - 0.008ms returns 0
T1628 000:178.215 JLINK_GetDebugInfo(0x107 = JLINKARM_DEBUG_INFO_NVIC_ADDR_INDEX)
T1628 000:178.218   Value=0xE000E000
T1628 000:178.223 - 0.007ms returns 0
T1628 000:178.227 JLINK_GetDebugInfo(0x10C = JLINKARM_DEBUG_INFO_DBG_ADDR_INDEX)
T1628 000:178.230   Value=0xE000EDF0
T1628 000:178.235 - 0.008ms returns 0
T1628 000:178.240 JLINK_GetDebugInfo(0x01 = Unknown)
T1628 000:178.244   Value=0x00000001
T1628 000:178.248 - 0.009ms returns 0
T1628 000:178.252 JLINK_ReadMemU32(0xE000ED00, 0x1 Items)
T1628 000:178.261   CPU_ReadMem(4 bytes @ 0xE000ED00)
T1628 000:178.757   Data:  41 C2 0F 41
T1628 000:178.764   Debug reg: CPUID
T1628 000:178.769 - 0.516ms returns 1 (0x1)
T1628 000:178.777 JLINK_GetDebugInfo(0x10F = JLINKARM_DEBUG_INFO_HAS_CORTEX_M_SECURITY_EXT_INDEX)
T1628 000:178.782   Value=0x00000000
T1628 000:178.787 - 0.010ms returns 0
T1628 000:178.792 JLINK_HasError()
T1628 000:178.797 JLINK_SetResetType(JLINKARM_CM3_RESET_TYPE_NORMAL)
T1628 000:178.802 - 0.005ms returns JLINKARM_CM3_RESET_TYPE_NORMAL
T1628 000:178.806 JLINK_Reset()
T1628 000:178.816   CPU is running
T1628 000:178.821   CPU_WriteMem(4 bytes @ 0xE000EDF0)
T1628 000:179.352   CPU is running
T1628 000:179.364   CPU_WriteMem(4 bytes @ 0xE000EDFC)
T1628 000:181.125   Reset: Halt core after reset via DEMCR.VC_CORERESET.
T1628 000:182.698   Reset: Reset device via AIRCR.SYSRESETREQ.
T1628 000:182.710   CPU is running
T1628 000:182.717   CPU_WriteMem(4 bytes @ 0xE000ED0C)
T1628 000:246.369   CPU_ReadMem(4 bytes @ 0xE000EDF0)
T1628 000:246.914   CPU_ReadMem(4 bytes @ 0xE000EDF0)
T1628 000:250.758   CPU_WriteMem(4 bytes @ 0xE000EDFC)
T1628 000:260.915   CPU_ReadMem(4 bytes @ 0xE000EDF0)
T1628 000:264.937   CPU_WriteMem(4 bytes @ 0xE0002000)
T1628 000:265.580   CPU_ReadMem(4 bytes @ 0xE000EDFC)
T1628 000:266.234   CPU_ReadMem(4 bytes @ 0xE0001000)
T1628 000:266.845 - 88.037ms
T1628 000:266.896 JLINK_Halt()
T1628 000:266.909 - 0.012ms returns 0x00
T1628 000:267.070 JLINK_ReadMemU32(0xE000EDF0, 0x1 Items)
T1628 000:267.124   CPU_ReadMem(4 bytes @ 0xE000EDF0)
T1628 000:267.705   Data:  03 00 03 00
T1628 000:267.735   Debug reg: DHCSR
T1628 000:267.751 - 0.682ms returns 1 (0x1)
T1628 000:267.777 JLINK_WriteU32_64(0xE000EDF0, 0xA05F0003)
T1628 000:267.789   Debug reg: DHCSR
T1628 000:268.348   CPU_WriteMem(4 bytes @ 0xE000EDF0)
T1628 000:268.941 - 1.163ms returns 0 (0x00000000)
T1628 000:268.966 JLINK_WriteU32_64(0xE000EDFC, 0x01000000)
T1628 000:268.978   Debug reg: DEMCR
T1628 000:269.006   CPU_WriteMem(4 bytes @ 0xE000EDFC)
T1628 000:269.569 - 0.601ms returns 0 (0x00000000)
T1628 000:278.944 JLINK_GetHWStatus(...)
T1628 000:279.116 - 0.171ms returns 0
T1628 000:282.461 JLINK_GetNumBPUnits(Type = 0xFFFFFF00)
T1628 000:282.472 - 0.011ms returns 0x06
T1628 000:282.477 JLINK_GetNumBPUnits(Type = 0xF0)
T1628 000:282.480 - 0.003ms returns 0x2000
T1628 000:282.484 JLINK_GetNumWPUnits()
T1628 000:282.488 - 0.003ms returns 4
T1628 000:285.671 JLINK_GetSpeed()
T1628 000:285.682 - 0.011ms returns 4000
T1628 000:287.821 JLINK_ReadMemU32(0xE000E004, 0x1 Items)
T1628 000:287.843   CPU_ReadMem(4 bytes @ 0xE000E004)
T1628 000:288.358   Data:  01 00 00 00
T1628 000:288.374 - 0.553ms returns 1 (0x1)
T1628 000:288.382 JLINK_ReadMemU32(0xE000E004, 0x1 Items)
T1628 000:288.394   CPU_ReadMem(4 bytes @ 0xE000E004)
T1628 000:288.854   Data:  01 00 00 00
T1628 000:288.866 - 0.484ms returns 1 (0x1)
T1628 000:288.873 JLINK_WriteMemEx(0xE0001000, 0x0000001C Bytes, Flags = 0x02000004)
T1628 000:288.877   Data:  01 00 00 00 00 00 00 00 00 00 00 00 00 00 00 00 ...
T1628 000:288.890   CPU_WriteMem(28 bytes @ 0xE0001000)
T1628 000:289.630 - 0.757ms returns 0x1C
T1628 000:289.647 JLINK_Halt()
T1628 000:289.651 - 0.004ms returns 0x00
T1628 000:289.655 JLINK_IsHalted()
T1628 000:289.660 - 0.004ms returns TRUE
T1628 000:297.039 JLINK_WriteMem(0x20000000, 0x5B8 Bytes, ...)
T1628 000:297.049   Data:  00 BE 0A E0 0D 78 2D 06 68 40 08 24 40 00 00 D3 ...
T1628 000:297.258   CPU_WriteMem(1464 bytes @ 0x20000000)
T1628 000:314.374 - 17.333ms returns 0x5B8
T1628 000:314.432 JLINK_HasError()
T1628 000:314.441 JLINK_WriteReg(R0, 0x00000000)
T1628 000:314.457 - 0.015ms returns 0
T1628 000:314.462 JLINK_WriteReg(R1, 0x03D09000)
T1628 000:314.467 - 0.005ms returns 0
T1628 000:314.473 JLINK_WriteReg(R2, 0x00000001)
T1628 000:314.477 - 0.004ms returns 0
T1628 000:314.483 JLINK_WriteReg(R3, 0x00000000)
T1628 000:314.487 - 0.004ms returns 0
T1628 000:314.493 JLINK_WriteReg(R4, 0x00000000)
T1628 000:314.498 - 0.004ms returns 0
T1628 000:314.503 JLINK_WriteReg(R5, 0x00000000)
T1628 000:314.508 - 0.004ms returns 0
T1628 000:314.551 JLINK_WriteReg(R6, 0x00000000)
T1628 000:314.557 - 0.006ms returns 0
T1628 000:314.566 JLINK_WriteReg(R7, 0x00000000)
T1628 000:314.571 - 0.004ms returns 0
T1628 000:314.578 JLINK_WriteReg(R8, 0x00000000)
T1628 000:314.583 - 0.006ms returns 0
T1628 000:314.588 JLINK_WriteReg(R9, 0x200005B4)
T1628 000:314.593 - 0.004ms returns 0
T1628 000:314.599 JLINK_WriteReg(R10, 0x00000000)
T1628 000:314.603 - 0.004ms returns 0
T1628 000:314.609 JLINK_WriteReg(R11, 0x00000000)
T1628 000:314.613 - 0.004ms returns 0
T1628 000:314.619 JLINK_WriteReg(R12, 0x00000000)
T1628 000:314.623 - 0.004ms returns 0
T1628 000:314.629 JLINK_WriteReg(R13 (SP), 0x20002000)
T1628 000:314.635 - 0.005ms returns 0
T1628 000:314.640 JLINK_WriteReg(R14, 0x20000001)
T1628 000:314.645 - 0.004ms returns 0
T1628 000:314.652 JLINK_WriteReg(R15 (PC), 0x20000020)
T1628 000:314.657 - 0.006ms returns 0
T1628 000:314.662 JLINK_WriteReg(XPSR, 0x01000000)
T1628 000:314.667 - 0.004ms returns 0
T1628 000:314.672 JLINK_WriteReg(MSP, 0x20002000)
T1628 000:314.677 - 0.004ms returns 0
T1628 000:314.682 JLINK_WriteReg(PSP, 0x20002000)
T1628 000:314.687 - 0.004ms returns 0
T1628 000:314.692 JLINK_WriteReg(CFBP, 0x00000000)
T1628 000:314.697 - 0.004ms returns 0
T1628 000:314.703 JLINK_SetBPEx(Addr = 0x20000000, Type = 0xFFFFFFF2)
T1628 000:314.714   CPU_ReadMem(2 bytes @ 0x20000000)
T1628 000:315.360 - 0.656ms returns 0x00000001
T1628 000:315.366 JLINK_Go()
T1628 000:315.374   CPU_WriteMem(2 bytes @ 0x20000000)
T1628 000:315.957   CPU_ReadMem(4 bytes @ 0xE0001000)
T1628 000:316.468   CPU_WriteMem(4 bytes @ 0xE0002008)
T1628 000:316.476   CPU_WriteMem(4 bytes @ 0xE000200C)
T1628 000:316.483   CPU_WriteMem(4 bytes @ 0xE0002010)
T1628 000:316.490   CPU_WriteMem(4 bytes @ 0xE0002014)
T1628 000:316.497   CPU_WriteMem(4 bytes @ 0xE0002018)
T1628 000:316.503   CPU_WriteMem(4 bytes @ 0xE000201C)
T1628 000:318.990   CPU_WriteMem(4 bytes @ 0xE0001004)
T1628 000:324.688   Memory map 'after startup completion point' is active
T1628 000:324.704 - 9.337ms
T1628 000:324.713 JLINK_IsHalted()
T1628 000:327.983   CPU_ReadMem(2 bytes @ 0x20000000)
T1628 000:328.568 - 3.854ms returns TRUE
T1628 000:328.575 JLINK_ReadReg(R15 (PC))
T1628 000:328.581 - 0.005ms returns 0x20000000
T1628 000:328.585 JLINK_ClrBPEx(BPHandle = 0x00000001)
T1628 000:328.589 - 0.003ms returns 0x00
T1628 000:328.594 JLINK_ReadReg(R0)
T1628 000:328.598 - 0.003ms returns 0x00000000
T1628 000:328.989 JLINK_HasError()
T1628 000:328.999 JLINK_WriteReg(R0, 0x00027000)
T1628 000:329.004 - 0.005ms returns 0
T1628 000:329.008 JLINK_WriteReg(R1, 0x00001000)
T1628 000:329.012 - 0.003ms returns 0
T1628 000:329.016 JLINK_WriteReg(R2, 0x000000FF)
T1628 000:329.022 - 0.005ms returns 0
T1628 000:329.043 JLINK_WriteReg(R3, 0x00000000)
T1628 000:329.046 - 0.020ms returns 0
T1628 000:329.050 JLINK_WriteReg(R4, 0x00000000)
T1628 000:329.054 - 0.003ms returns 0
T1628 000:329.058 JLINK_WriteReg(R5, 0x00000000)
T1628 000:329.062 - 0.003ms returns 0
T1628 000:329.066 JLINK_WriteReg(R6, 0x00000000)
T1628 000:329.069 - 0.003ms returns 0
T1628 000:329.073 JLINK_WriteReg(R7, 0x00000000)
T1628 000:329.077 - 0.003ms returns 0
T1628 000:329.081 JLINK_WriteReg(R8, 0x00000000)
T1628 000:329.085 - 0.003ms returns 0
T1628 000:329.089 JLINK_WriteReg(R9, 0x200005B4)
T1628 000:329.092 - 0.003ms returns 0
T1628 000:329.096 JLINK_WriteReg(R10, 0x00000000)
T1628 000:329.100 - 0.003ms returns 0
T1628 000:329.104 JLINK_WriteReg(R11, 0x00000000)
T1628 000:329.107 - 0.003ms returns 0
T1628 000:329.111 JLINK_WriteReg(R12, 0x00000000)
T1628 000:329.115 - 0.003ms returns 0
T1628 000:329.119 JLINK_WriteReg(R13 (SP), 0x20002000)
T1628 000:329.123 - 0.003ms returns 0
T1628 000:329.127 JLINK_WriteReg(R14, 0x20000001)
T1628 000:329.131 - 0.003ms returns 0
T1628 000:329.135 JLINK_WriteReg(R15 (PC), 0x20000288)
T1628 000:329.138 - 0.003ms returns 0
T1628 000:329.143 JLINK_WriteReg(XPSR, 0x01000000)
T1628 000:329.146 - 0.003ms returns 0
T1628 000:329.150 JLINK_WriteReg(MSP, 0x20002000)
T1628 000:329.154 - 0.003ms returns 0
T1628 000:329.158 JLINK_WriteReg(PSP, 0x20002000)
T1628 000:329.201 - 0.043ms returns 0
T1628 000:329.206 JLINK_WriteReg(CFBP, 0x00000000)
T1628 000:329.209 - 0.003ms returns 0
T1628 000:329.214 JLINK_SetBPEx(Addr = 0x20000000, Type = 0xFFFFFFF2)
T1628 000:329.218 - 0.004ms returns 0x00000002
T1628 000:329.222 JLINK_Go()
T1628 000:329.232   CPU_ReadMem(4 bytes @ 0xE0001000)
T1628 000:333.031 - 3.808ms
T1628 000:333.042 JLINK_IsHalted()
T1628 000:333.543 - 0.500ms returns FALSE
T1628 000:333.549 JLINK_HasError()
T1628 000:351.473 JLINK_IsHalted()
T1628 000:354.843   CPU_ReadMem(2 bytes @ 0x20000000)
T1628 000:355.357 - 3.883ms returns TRUE
T1628 000:355.378 JLINK_ReadReg(R15 (PC))
T1628 000:355.390 - 0.013ms returns 0x20000000
T1628 000:355.395 JLINK_ClrBPEx(BPHandle = 0x00000002)
T1628 000:355.400 - 0.004ms returns 0x00
T1628 000:355.404 JLINK_ReadReg(R0)
T1628 000:355.408 - 0.004ms returns 0x00000000
T1628 000:355.885 JLINK_HasError()
T1628 000:355.894 JLINK_WriteReg(R0, 0x00028000)
T1628 000:355.900 - 0.006ms returns 0
T1628 000:355.904 JLINK_WriteReg(R1, 0x00001000)
T1628 000:355.908 - 0.003ms returns 0
T1628 000:355.913 JLINK_WriteReg(R2, 0x000000FF)
T1628 000:355.916 - 0.003ms returns 0
T1628 000:355.921 JLINK_WriteReg(R3, 0x00000000)
T1628 000:355.925 - 0.003ms returns 0
T1628 000:355.929 JLINK_WriteReg(R4, 0x00000000)
T1628 000:355.933 - 0.003ms returns 0
T1628 000:355.937 JLINK_WriteReg(R5, 0x00000000)
T1628 000:355.941 - 0.003ms returns 0
T1628 000:355.945 JLINK_WriteReg(R6, 0x00000000)
T1628 000:355.949 - 0.003ms returns 0
T1628 000:355.954 JLINK_WriteReg(R7, 0x00000000)
T1628 000:355.958 - 0.003ms returns 0
T1628 000:355.962 JLINK_WriteReg(R8, 0x00000000)
T1628 000:355.966 - 0.003ms returns 0
T1628 000:355.970 JLINK_WriteReg(R9, 0x200005B4)
T1628 000:355.974 - 0.003ms returns 0
T1628 000:355.978 JLINK_WriteReg(R10, 0x00000000)
T1628 000:355.981 - 0.003ms returns 0
T1628 000:355.986 JLINK_WriteReg(R11, 0x00000000)
T1628 000:355.989 - 0.003ms returns 0
T1628 000:355.993 JLINK_WriteReg(R12, 0x00000000)
T1628 000:355.997 - 0.003ms returns 0
T1628 000:356.001 JLINK_WriteReg(R13 (SP), 0x20002000)
T1628 000:356.006 - 0.004ms returns 0
T1628 000:356.010 JLINK_WriteReg(R14, 0x20000001)
T1628 000:356.013 - 0.003ms returns 0
T1628 000:356.018 JLINK_WriteReg(R15 (PC), 0x20000288)
T1628 000:356.021 - 0.003ms returns 0
T1628 000:356.026 JLINK_WriteReg(XPSR, 0x01000000)
T1628 000:356.029 - 0.003ms returns 0
T1628 000:356.034 JLINK_WriteReg(MSP, 0x20002000)
T1628 000:356.037 - 0.003ms returns 0
T1628 000:356.041 JLINK_WriteReg(PSP, 0x20002000)
T1628 000:356.045 - 0.003ms returns 0
T1628 000:356.049 JLINK_WriteReg(CFBP, 0x00000000)
T1628 000:356.053 - 0.003ms returns 0
T1628 000:356.057 JLINK_SetBPEx(Addr = 0x20000000, Type = 0xFFFFFFF2)
T1628 000:356.062 - 0.004ms returns 0x00000003
T1628 000:356.066 JLINK_Go()
T1628 000:356.076   CPU_ReadMem(4 bytes @ 0xE0001000)
T1628 000:360.067 - 3.999ms
T1628 000:360.080 JLINK_IsHalted()
T1628 000:360.580 - 0.499ms returns FALSE
T1628 000:360.588 JLINK_HasError()
T1628 000:366.270 JLINK_IsHalted()
T1628 000:369.545   CPU_ReadMem(2 bytes @ 0x20000000)
T1628 000:370.214 - 3.943ms returns TRUE
T1628 000:370.224 JLINK_ReadReg(R15 (PC))
T1628 000:370.232 - 0.007ms returns 0x20000000
T1628 000:370.238 JLINK_ClrBPEx(BPHandle = 0x00000003)
T1628 000:370.243 - 0.005ms returns 0x00
T1628 000:370.249 JLINK_ReadReg(R0)
T1628 000:370.254 - 0.004ms returns 0x00000000
T1628 000:370.928 JLINK_HasError()
T1628 000:370.942 JLINK_WriteReg(R0, 0x00029000)
T1628 000:370.951 - 0.008ms returns 0
T1628 000:370.956 JLINK_WriteReg(R1, 0x00001000)
T1628 000:370.961 - 0.005ms returns 0
T1628 000:370.967 JLINK_WriteReg(R2, 0x000000FF)
T1628 000:370.972 - 0.004ms returns 0
T1628 000:370.977 JLINK_WriteReg(R3, 0x00000000)
T1628 000:370.982 - 0.004ms returns 0
T1628 000:370.987 JLINK_WriteReg(R4, 0x00000000)
T1628 000:370.992 - 0.004ms returns 0
T1628 000:370.997 JLINK_WriteReg(R5, 0x00000000)
T1628 000:371.002 - 0.004ms returns 0
T1628 000:371.009 JLINK_WriteReg(R6, 0x00000000)
T1628 000:371.018 - 0.008ms returns 0
T1628 000:371.023 JLINK_WriteReg(R7, 0x00000000)
T1628 000:371.027 - 0.004ms returns 0
T1628 000:371.032 JLINK_WriteReg(R8, 0x00000000)
T1628 000:371.037 - 0.004ms returns 0
T1628 000:371.042 JLINK_WriteReg(R9, 0x200005B4)
T1628 000:371.046 - 0.004ms returns 0
T1628 000:371.052 JLINK_WriteReg(R10, 0x00000000)
T1628 000:371.056 - 0.004ms returns 0
T1628 000:371.062 JLINK_WriteReg(R11, 0x00000000)
T1628 000:371.066 - 0.004ms returns 0
T1628 000:371.071 JLINK_WriteReg(R12, 0x00000000)
T1628 000:371.076 - 0.004ms returns 0
T1628 000:371.081 JLINK_WriteReg(R13 (SP), 0x20002000)
T1628 000:371.086 - 0.005ms returns 0
T1628 000:371.091 JLINK_WriteReg(R14, 0x20000001)
T1628 000:371.096 - 0.004ms returns 0
T1628 000:371.101 JLINK_WriteReg(R15 (PC), 0x20000288)
T1628 000:371.106 - 0.004ms returns 0
T1628 000:371.111 JLINK_WriteReg(XPSR, 0x01000000)
T1628 000:371.116 - 0.004ms returns 0
T1628 000:371.121 JLINK_WriteReg(MSP, 0x20002000)
T1628 000:371.125 - 0.004ms returns 0
T1628 000:371.130 JLINK_WriteReg(PSP, 0x20002000)
T1628 000:371.135 - 0.004ms returns 0
T1628 000:371.140 JLINK_WriteReg(CFBP, 0x00000000)
T1628 000:371.145 - 0.004ms returns 0
T1628 000:371.151 JLINK_SetBPEx(Addr = 0x20000000, Type = 0xFFFFFFF2)
T1628 000:371.156 - 0.006ms returns 0x00000004
T1628 000:371.162 JLINK_Go()
T1628 000:371.173   CPU_ReadMem(4 bytes @ 0xE0001000)
T1628 000:375.078 - 3.915ms
T1628 000:375.094 JLINK_IsHalted()
T1628 000:375.797 - 0.702ms returns FALSE
T1628 000:375.809 JLINK_HasError()
T1628 000:381.205 JLINK_IsHalted()
T1628 000:384.428   CPU_ReadMem(2 bytes @ 0x20000000)
T1628 000:384.883 - 3.678ms returns TRUE
T1628 000:384.899 JLINK_ReadReg(R15 (PC))
T1628 000:384.908 - 0.009ms returns 0x20000000
T1628 000:384.915 JLINK_ClrBPEx(BPHandle = 0x00000004)
T1628 000:384.921 - 0.006ms returns 0x00
T1628 000:384.928 JLINK_ReadReg(R0)
T1628 000:384.933 - 0.005ms returns 0x00000000
T1628 000:385.496 JLINK_HasError()
T1628 000:385.509 JLINK_WriteReg(R0, 0x0002A000)
T1628 000:385.518 - 0.008ms returns 0
T1628 000:385.525 JLINK_WriteReg(R1, 0x00001000)
T1628 000:385.531 - 0.006ms returns 0
T1628 000:385.537 JLINK_WriteReg(R2, 0x000000FF)
T1628 000:385.543 - 0.005ms returns 0
T1628 000:385.550 JLINK_WriteReg(R3, 0x00000000)
T1628 000:385.555 - 0.005ms returns 0
T1628 000:385.562 JLINK_WriteReg(R4, 0x00000000)
T1628 000:385.567 - 0.005ms returns 0
T1628 000:385.574 JLINK_WriteReg(R5, 0x00000000)
T1628 000:385.580 - 0.006ms returns 0
T1628 000:385.587 JLINK_WriteReg(R6, 0x00000000)
T1628 000:385.592 - 0.005ms returns 0
T1628 000:385.599 JLINK_WriteReg(R7, 0x00000000)
T1628 000:385.605 - 0.005ms returns 0
T1628 000:385.611 JLINK_WriteReg(R8, 0x00000000)
T1628 000:385.617 - 0.005ms returns 0
T1628 000:385.623 JLINK_WriteReg(R9, 0x200005B4)
T1628 000:385.629 - 0.005ms returns 0
T1628 000:385.636 JLINK_WriteReg(R10, 0x00000000)
T1628 000:385.641 - 0.005ms returns 0
T1628 000:385.648 JLINK_WriteReg(R11, 0x00000000)
T1628 000:385.654 - 0.005ms returns 0
T1628 000:385.660 JLINK_WriteReg(R12, 0x00000000)
T1628 000:385.666 - 0.005ms returns 0
T1628 000:385.672 JLINK_WriteReg(R13 (SP), 0x20002000)
T1628 000:385.679 - 0.006ms returns 0
T1628 000:385.685 JLINK_WriteReg(R14, 0x20000001)
T1628 000:385.691 - 0.005ms returns 0
T1628 000:385.698 JLINK_WriteReg(R15 (PC), 0x20000288)
T1628 000:385.703 - 0.005ms returns 0
T1628 000:385.710 JLINK_WriteReg(XPSR, 0x01000000)
T1628 000:385.716 - 0.005ms returns 0
T1628 000:385.722 JLINK_WriteReg(MSP, 0x20002000)
T1628 000:385.728 - 0.005ms returns 0
T1628 000:385.735 JLINK_WriteReg(PSP, 0x20002000)
T1628 000:385.741 - 0.005ms returns 0
T1628 000:385.747 JLINK_WriteReg(CFBP, 0x00000000)
T1628 000:385.753 - 0.005ms returns 0
T1628 000:385.760 JLINK_SetBPEx(Addr = 0x20000000, Type = 0xFFFFFFF2)
T1628 000:385.767 - 0.007ms returns 0x00000005
T1628 000:385.774 JLINK_Go()
T1628 000:385.790   CPU_ReadMem(4 bytes @ 0xE0001000)
T1628 000:389.291 - 3.516ms
T1628 000:389.307 JLINK_IsHalted()
T1628 000:389.705 - 0.398ms returns FALSE
T1628 000:389.714 JLINK_HasError()
T1628 000:396.662 JLINK_IsHalted()
T1628 000:400.148   CPU_ReadMem(2 bytes @ 0x20000000)
T1628 000:400.617 - 3.954ms returns TRUE
T1628 000:400.631 JLINK_ReadReg(R15 (PC))
T1628 000:400.640 - 0.009ms returns 0x20000000
T1628 000:400.648 JLINK_ClrBPEx(BPHandle = 0x00000005)
T1628 000:400.654 - 0.006ms returns 0x00
T1628 000:400.662 JLINK_ReadReg(R0)
T1628 000:400.668 - 0.006ms returns 0x00000000
T1628 000:401.253 JLINK_HasError()
T1628 000:401.266 JLINK_WriteReg(R0, 0x0002B000)
T1628 000:401.275 - 0.008ms returns 0
T1628 000:401.283 JLINK_WriteReg(R1, 0x00001000)
T1628 000:401.289 - 0.006ms returns 0
T1628 000:401.296 JLINK_WriteReg(R2, 0x000000FF)
T1628 000:401.303 - 0.006ms returns 0
T1628 000:401.326 JLINK_WriteReg(R3, 0x00000000)
T1628 000:401.333 - 0.007ms returns 0
T1628 000:401.340 JLINK_WriteReg(R4, 0x00000000)
T1628 000:401.346 - 0.006ms returns 0
T1628 000:401.353 JLINK_WriteReg(R5, 0x00000000)
T1628 000:401.359 - 0.006ms returns 0
T1628 000:401.366 JLINK_WriteReg(R6, 0x00000000)
T1628 000:401.373 - 0.006ms returns 0
T1628 000:401.380 JLINK_WriteReg(R7, 0x00000000)
T1628 000:401.386 - 0.006ms returns 0
T1628 000:401.393 JLINK_WriteReg(R8, 0x00000000)
T1628 000:401.399 - 0.006ms returns 0
T1628 000:401.406 JLINK_WriteReg(R9, 0x200005B4)
T1628 000:401.412 - 0.006ms returns 0
T1628 000:401.419 JLINK_WriteReg(R10, 0x00000000)
T1628 000:401.426 - 0.006ms returns 0
T1628 000:401.433 JLINK_WriteReg(R11, 0x00000000)
T1628 000:401.439 - 0.006ms returns 0
T1628 000:401.446 JLINK_WriteReg(R12, 0x00000000)
T1628 000:401.452 - 0.006ms returns 0
T1628 000:401.460 JLINK_WriteReg(R13 (SP), 0x20002000)
T1628 000:401.466 - 0.006ms returns 0
T1628 000:401.473 JLINK_WriteReg(R14, 0x20000001)
T1628 000:401.479 - 0.005ms returns 0
T1628 000:401.485 JLINK_WriteReg(R15 (PC), 0x20000288)
T1628 000:401.491 - 0.005ms returns 0
T1628 000:401.498 JLINK_WriteReg(XPSR, 0x01000000)
T1628 000:401.503 - 0.005ms returns 0
T1628 000:401.510 JLINK_WriteReg(MSP, 0x20002000)
T1628 000:401.516 - 0.005ms returns 0
T1628 000:401.522 JLINK_WriteReg(PSP, 0x20002000)
T1628 000:401.528 - 0.005ms returns 0
T1628 000:401.534 JLINK_WriteReg(CFBP, 0x00000000)
T1628 000:401.540 - 0.005ms returns 0
T1628 000:401.547 JLINK_SetBPEx(Addr = 0x20000000, Type = 0xFFFFFFF2)
T1628 000:401.554 - 0.006ms returns 0x00000006
T1628 000:401.561 JLINK_Go()
T1628 000:401.575   CPU_ReadMem(4 bytes @ 0xE0001000)
T1628 000:405.000 - 3.438ms
T1628 000:405.017 JLINK_IsHalted()
T1628 000:405.411 - 0.393ms returns FALSE
T1628 000:405.427 JLINK_HasError()
T1628 000:412.032 JLINK_IsHalted()
T1628 000:415.218   CPU_ReadMem(2 bytes @ 0x20000000)
T1628 000:415.735 - 3.703ms returns TRUE
T1628 000:415.747 JLINK_ReadReg(R15 (PC))
T1628 000:415.758 - 0.011ms returns 0x20000000
T1628 000:415.767 JLINK_ClrBPEx(BPHandle = 0x00000006)
T1628 000:415.774 - 0.007ms returns 0x00
T1628 000:415.783 JLINK_ReadReg(R0)
T1628 000:415.790 - 0.007ms returns 0x00000000
T1628 000:416.438 JLINK_HasError()
T1628 000:416.455 JLINK_WriteReg(R0, 0x0002C000)
T1628 000:416.465 - 0.010ms returns 0
T1628 000:416.473 JLINK_WriteReg(R1, 0x00001000)
T1628 000:416.480 - 0.007ms returns 0
T1628 000:416.488 JLINK_WriteReg(R2, 0x000000FF)
T1628 000:416.494 - 0.006ms returns 0
T1628 000:416.502 JLINK_WriteReg(R3, 0x00000000)
T1628 000:416.509 - 0.006ms returns 0
T1628 000:416.516 JLINK_WriteReg(R4, 0x00000000)
T1628 000:416.523 - 0.006ms returns 0
T1628 000:416.530 JLINK_WriteReg(R5, 0x00000000)
T1628 000:416.537 - 0.006ms returns 0
T1628 000:416.545 JLINK_WriteReg(R6, 0x00000000)
T1628 000:416.551 - 0.006ms returns 0
T1628 000:416.559 JLINK_WriteReg(R7, 0x00000000)
T1628 000:416.565 - 0.006ms returns 0
T1628 000:416.573 JLINK_WriteReg(R8, 0x00000000)
T1628 000:416.580 - 0.006ms returns 0
T1628 000:416.588 JLINK_WriteReg(R9, 0x200005B4)
T1628 000:416.594 - 0.006ms returns 0
T1628 000:416.602 JLINK_WriteReg(R10, 0x00000000)
T1628 000:416.609 - 0.006ms returns 0
T1628 000:416.620 JLINK_WriteReg(R11, 0x00000000)
T1628 000:416.628 - 0.008ms returns 0
T1628 000:416.636 JLINK_WriteReg(R12, 0x00000000)
T1628 000:416.643 - 0.006ms returns 0
T1628 000:416.653 JLINK_WriteReg(R13 (SP), 0x20002000)
T1628 000:416.660 - 0.009ms returns 0
T1628 000:416.667 JLINK_WriteReg(R14, 0x20000001)
T1628 000:416.674 - 0.006ms returns 0
T1628 000:416.681 JLINK_WriteReg(R15 (PC), 0x20000288)
T1628 000:416.688 - 0.006ms returns 0
T1628 000:416.695 JLINK_WriteReg(XPSR, 0x01000000)
T1628 000:416.702 - 0.006ms returns 0
T1628 000:416.709 JLINK_WriteReg(MSP, 0x20002000)
T1628 000:416.715 - 0.006ms returns 0
T1628 000:416.723 JLINK_WriteReg(PSP, 0x20002000)
T1628 000:416.729 - 0.006ms returns 0
T1628 000:416.737 JLINK_WriteReg(CFBP, 0x00000000)
T1628 000:416.743 - 0.006ms returns 0
T1628 000:416.751 JLINK_SetBPEx(Addr = 0x20000000, Type = 0xFFFFFFF2)
T1628 000:416.759 - 0.007ms returns 0x00000007
T1628 000:416.766 JLINK_Go()
T1628 000:416.782   CPU_ReadMem(4 bytes @ 0xE0001000)
T1628 000:420.268 - 3.501ms
T1628 000:420.288 JLINK_IsHalted()
T1628 000:420.670 - 0.380ms returns FALSE
T1628 000:420.689 JLINK_HasError()
T1628 000:427.943 JLINK_IsHalted()
T1628 000:431.253   CPU_ReadMem(2 bytes @ 0x20000000)
T1628 000:431.793 - 3.848ms returns TRUE
T1628 000:431.827 JLINK_ReadReg(R15 (PC))
T1628 000:431.845 - 0.017ms returns 0x20000000
T1628 000:431.858 JLINK_ClrBPEx(BPHandle = 0x00000007)
T1628 000:431.870 - 0.012ms returns 0x00
T1628 000:431.882 JLINK_ReadReg(R0)
T1628 000:431.893 - 0.010ms returns 0x00000000
T1628 000:432.884 JLINK_HasError()
T1628 000:432.958 JLINK_WriteReg(R0, 0x0002D000)
T1628 000:432.976 - 0.018ms returns 0
T1628 000:432.988 JLINK_WriteReg(R1, 0x00001000)
T1628 000:432.999 - 0.010ms returns 0
T1628 000:433.010 JLINK_WriteReg(R2, 0x000000FF)
T1628 000:433.020 - 0.010ms returns 0
T1628 000:433.031 JLINK_WriteReg(R3, 0x00000000)
T1628 000:433.041 - 0.009ms returns 0
T1628 000:433.052 JLINK_WriteReg(R4, 0x00000000)
T1628 000:433.062 - 0.009ms returns 0
T1628 000:433.073 JLINK_WriteReg(R5, 0x00000000)
T1628 000:433.082 - 0.009ms returns 0
T1628 000:433.093 JLINK_WriteReg(R6, 0x00000000)
T1628 000:433.103 - 0.009ms returns 0
T1628 000:433.115 JLINK_WriteReg(R7, 0x00000000)
T1628 000:433.124 - 0.009ms returns 0
T1628 000:433.134 JLINK_WriteReg(R8, 0x00000000)
T1628 000:433.143 - 0.009ms returns 0
T1628 000:433.154 JLINK_WriteReg(R9, 0x200005B4)
T1628 000:433.163 - 0.009ms returns 0
T1628 000:433.173 JLINK_WriteReg(R10, 0x00000000)
T1628 000:433.182 - 0.009ms returns 0
T1628 000:433.193 JLINK_WriteReg(R11, 0x00000000)
T1628 000:433.202 - 0.009ms returns 0
T1628 000:433.212 JLINK_WriteReg(R12, 0x00000000)
T1628 000:433.221 - 0.009ms returns 0
T1628 000:433.232 JLINK_WriteReg(R13 (SP), 0x20002000)
T1628 000:433.242 - 0.010ms returns 0
T1628 000:433.252 JLINK_WriteReg(R14, 0x20000001)
T1628 000:433.261 - 0.009ms returns 0
T1628 000:433.272 JLINK_WriteReg(R15 (PC), 0x20000288)
T1628 000:433.281 - 0.009ms returns 0
T1628 000:433.292 JLINK_WriteReg(XPSR, 0x01000000)
T1628 000:433.301 - 0.009ms returns 0
T1628 000:433.311 JLINK_WriteReg(MSP, 0x20002000)
T1628 000:433.320 - 0.009ms returns 0
T1628 000:433.331 JLINK_WriteReg(PSP, 0x20002000)
T1628 000:433.340 - 0.009ms returns 0
T1628 000:433.350 JLINK_WriteReg(CFBP, 0x00000000)
T1628 000:433.359 - 0.009ms returns 0
T1628 000:433.371 JLINK_SetBPEx(Addr = 0x20000000, Type = 0xFFFFFFF2)
T1628 000:433.382 - 0.011ms returns 0x00000008
T1628 000:433.392 JLINK_Go()
T1628 000:433.415   CPU_ReadMem(4 bytes @ 0xE0001000)
T1628 000:437.157 - 3.764ms
T1628 000:437.173 JLINK_IsHalted()
T1628 000:437.690 - 0.514ms returns FALSE
T1628 000:437.736 JLINK_HasError()
T1628 000:443.500 JLINK_IsHalted()
T1628 000:446.826   CPU_ReadMem(2 bytes @ 0x20000000)
T1628 000:447.354 - 3.852ms returns TRUE
T1628 000:447.381 JLINK_ReadReg(R15 (PC))
T1628 000:447.396 - 0.014ms returns 0x20000000
T1628 000:447.406 JLINK_ClrBPEx(BPHandle = 0x00000008)
T1628 000:447.415 - 0.009ms returns 0x00
T1628 000:447.479 JLINK_ReadReg(R0)
T1628 000:447.491 - 0.011ms returns 0x00000000
T1628 000:448.296 JLINK_HasError()
T1628 000:448.320 JLINK_WriteReg(R0, 0x00000001)
T1628 000:448.334 - 0.014ms returns 0
T1628 000:448.344 JLINK_WriteReg(R1, 0x00001000)
T1628 000:448.352 - 0.008ms returns 0
T1628 000:448.361 JLINK_WriteReg(R2, 0x000000FF)
T1628 000:448.369 - 0.007ms returns 0
T1628 000:448.377 JLINK_WriteReg(R3, 0x00000000)
T1628 000:448.385 - 0.007ms returns 0
T1628 000:448.394 JLINK_WriteReg(R4, 0x00000000)
T1628 000:448.401 - 0.007ms returns 0
T1628 000:448.410 JLINK_WriteReg(R5, 0x00000000)
T1628 000:448.418 - 0.007ms returns 0
T1628 000:448.426 JLINK_WriteReg(R6, 0x00000000)
T1628 000:448.434 - 0.007ms returns 0
T1628 000:448.443 JLINK_WriteReg(R7, 0x00000000)
T1628 000:448.450 - 0.007ms returns 0
T1628 000:448.459 JLINK_WriteReg(R8, 0x00000000)
T1628 000:448.467 - 0.007ms returns 0
T1628 000:448.476 JLINK_WriteReg(R9, 0x200005B4)
T1628 000:448.484 - 0.007ms returns 0
T1628 000:448.492 JLINK_WriteReg(R10, 0x00000000)
T1628 000:448.500 - 0.007ms returns 0
T1628 000:448.509 JLINK_WriteReg(R11, 0x00000000)
T1628 000:448.516 - 0.007ms returns 0
T1628 000:448.525 JLINK_WriteReg(R12, 0x00000000)
T1628 000:448.533 - 0.007ms returns 0
T1628 000:448.542 JLINK_WriteReg(R13 (SP), 0x20002000)
T1628 000:448.550 - 0.008ms returns 0
T1628 000:448.559 JLINK_WriteReg(R14, 0x20000001)
T1628 000:448.567 - 0.007ms returns 0
T1628 000:448.576 JLINK_WriteReg(R15 (PC), 0x20000060)
T1628 000:448.583 - 0.007ms returns 0
T1628 000:448.592 JLINK_WriteReg(XPSR, 0x01000000)
T1628 000:448.600 - 0.007ms returns 0
T1628 000:448.609 JLINK_WriteReg(MSP, 0x20002000)
T1628 000:448.616 - 0.007ms returns 0
T1628 000:448.625 JLINK_WriteReg(PSP, 0x20002000)
T1628 000:448.633 - 0.008ms returns 0
T1628 000:448.643 JLINK_WriteReg(CFBP, 0x00000000)
T1628 000:448.650 - 0.007ms returns 0
T1628 000:448.660 JLINK_SetBPEx(Addr = 0x20000000, Type = 0xFFFFFFF2)
T1628 000:448.669 - 0.009ms returns 0x00000009
T1628 000:448.678 JLINK_Go()
T1628 000:448.697   CPU_ReadMem(4 bytes @ 0xE0001000)
T1628 000:452.499 - 3.819ms
T1628 000:452.524 JLINK_IsHalted()
T1628 000:455.836   CPU_ReadMem(2 bytes @ 0x20000000)
T1628 000:456.324 - 3.800ms returns TRUE
T1628 000:456.335 JLINK_ReadReg(R15 (PC))
T1628 000:456.345 - 0.009ms returns 0x20000000
T1628 000:456.352 JLINK_ClrBPEx(BPHandle = 0x00000009)
T1628 000:456.359 - 0.006ms returns 0x00
T1628 000:456.366 JLINK_ReadReg(R0)
T1628 000:456.372 - 0.006ms returns 0x00000000
T1628 000:525.874 JLINK_WriteMem(0x20000000, 0x5B8 Bytes, ...)
T1628 000:525.888   Data:  00 BE 0A E0 0D 78 2D 06 68 40 08 24 40 00 00 D3 ...
T1628 000:525.912   CPU_WriteMem(1464 bytes @ 0x20000000)
T1628 000:543.219 - 17.344ms returns 0x5B8
T1628 000:543.299 JLINK_HasError()
T1628 000:543.311 JLINK_WriteReg(R0, 0x00000000)
T1628 000:543.324 - 0.014ms returns 0
T1628 000:543.333 JLINK_WriteReg(R1, 0x03D09000)
T1628 000:543.341 - 0.007ms returns 0
T1628 000:543.348 JLINK_WriteReg(R2, 0x00000002)
T1628 000:543.355 - 0.006ms returns 0
T1628 000:543.362 JLINK_WriteReg(R3, 0x00000000)
T1628 000:543.369 - 0.006ms returns 0
T1628 000:543.376 JLINK_WriteReg(R4, 0x00000000)
T1628 000:543.383 - 0.006ms returns 0
T1628 000:543.390 JLINK_WriteReg(R5, 0x00000000)
T1628 000:543.397 - 0.006ms returns 0
T1628 000:543.404 JLINK_WriteReg(R6, 0x00000000)
T1628 000:543.411 - 0.006ms returns 0
T1628 000:543.418 JLINK_WriteReg(R7, 0x00000000)
T1628 000:543.424 - 0.006ms returns 0
T1628 000:543.432 JLINK_WriteReg(R8, 0x00000000)
T1628 000:543.438 - 0.006ms returns 0
T1628 000:543.446 JLINK_WriteReg(R9, 0x200005B4)
T1628 000:543.452 - 0.006ms returns 0
T1628 000:543.459 JLINK_WriteReg(R10, 0x00000000)
T1628 000:543.466 - 0.006ms returns 0
T1628 000:543.473 JLINK_WriteReg(R11, 0x00000000)
T1628 000:543.480 - 0.006ms returns 0
T1628 000:543.487 JLINK_WriteReg(R12, 0x00000000)
T1628 000:543.494 - 0.006ms returns 0
T1628 000:543.501 JLINK_WriteReg(R13 (SP), 0x20002000)
T1628 000:543.509 - 0.007ms returns 0
T1628 000:543.519 JLINK_WriteReg(R14, 0x20000001)
T1628 000:543.528 - 0.009ms returns 0
T1628 000:543.536 JLINK_WriteReg(R15 (PC), 0x20000020)
T1628 000:543.543 - 0.007ms returns 0
T1628 000:543.551 JLINK_WriteReg(XPSR, 0x01000000)
T1628 000:543.557 - 0.006ms returns 0
T1628 000:543.564 JLINK_WriteReg(MSP, 0x20002000)
T1628 000:543.571 - 0.006ms returns 0
T1628 000:543.578 JLINK_WriteReg(PSP, 0x20002000)
T1628 000:543.585 - 0.006ms returns 0
T1628 000:543.592 JLINK_WriteReg(CFBP, 0x00000000)
T1628 000:543.599 - 0.006ms returns 0
T1628 000:543.607 JLINK_SetBPEx(Addr = 0x20000000, Type = 0xFFFFFFF2)
T1628 000:543.621   CPU_ReadMem(2 bytes @ 0x20000000)
T1628 000:544.173 - 0.565ms returns 0x0000000A
T1628 000:544.205 JLINK_Go()
T1628 000:544.219   CPU_WriteMem(2 bytes @ 0x20000000)
T1628 000:544.795   CPU_ReadMem(4 bytes @ 0xE0001000)
T1628 000:548.539 - 4.333ms
T1628 000:548.558 JLINK_IsHalted()
T1628 000:552.060   CPU_ReadMem(2 bytes @ 0x20000000)
T1628 000:552.646 - 4.087ms returns TRUE
T1628 000:552.658 JLINK_ReadReg(R15 (PC))
T1628 000:552.670 - 0.011ms returns 0x20000000
T1628 000:552.679 JLINK_ClrBPEx(BPHandle = 0x0000000A)
T1628 000:552.687 - 0.008ms returns 0x00
T1628 000:552.696 JLINK_ReadReg(R0)
T1628 000:552.704 - 0.007ms returns 0x00000000
T1628 000:553.173 JLINK_WriteMem(0x200005C8, 0x238 Bytes, ...)
T1628 000:553.186   Data:  B0 5E 00 20 C1 73 02 00 C9 73 02 00 CB 73 02 00 ...
T1628 000:553.209   CPU_WriteMem(568 bytes @ 0x200005C8)
T1628 000:560.451 - 7.277ms returns 0x238
T1628 000:560.480 JLINK_WriteMem(0x20000800, 0x400 Bytes, ...)
T1628 000:560.490   Data:  02 03 40 E8 01 34 00 2C E9 D1 4F F0 01 00 0A 60 ...
T1628 000:560.518   CPU_WriteMem(1024 bytes @ 0x20000800)
T1628 000:572.833 - 12.351ms returns 0x400
T1628 000:572.879 JLINK_WriteMem(0x20000C00, 0x400 Bytes, ...)
T1628 000:572.892   Data:  60 71 21 68 00 20 88 47 4F F4 82 76 30 46 02 F0 ...
T1628 000:572.931   CPU_WriteMem(1024 bytes @ 0x20000C00)
T1628 000:585.588 - 12.707ms returns 0x400
T1628 000:585.657 JLINK_WriteMem(0x20001000, 0x400 Bytes, ...)
T1628 000:585.669   Data:  04 46 00 25 03 E0 39 46 B0 47 64 1C 6D 1C 20 78 ...
T1628 000:585.710   CPU_WriteMem(1024 bytes @ 0x20001000)
T1628 000:598.472 - 12.812ms returns 0x400
T1628 000:598.564 JLINK_WriteMem(0x20001400, 0x1C8 Bytes, ...)
T1628 000:598.581   Data:  D3 F8 80 51 07 4C 25 40 15 60 C3 F8 80 41 D3 F8 ...
T1628 000:598.642   CPU_WriteMem(456 bytes @ 0x20001400)
T1628 000:604.890 - 6.321ms returns 0x1C8
T1628 000:605.002 JLINK_HasError()
T1628 000:605.035 JLINK_WriteReg(R0, 0x00027000)
T1628 000:605.075 - 0.040ms returns 0
T1628 000:605.110 JLINK_WriteReg(R1, 0x00001000)
T1628 000:605.130 - 0.020ms returns 0
T1628 000:605.151 JLINK_WriteReg(R2, 0x200005C8)
T1628 000:605.168 - 0.017ms returns 0
T1628 000:605.197 JLINK_WriteReg(R3, 0x00000000)
T1628 000:605.216 - 0.019ms returns 0
T1628 000:605.236 JLINK_WriteReg(R4, 0x00000000)
T1628 000:605.253 - 0.017ms returns 0
T1628 000:605.273 JLINK_WriteReg(R5, 0x00000000)
T1628 000:605.291 - 0.018ms returns 0
T1628 000:605.573 JLINK_WriteReg(R6, 0x00000000)
T1628 000:605.644 - 0.071ms returns 0
T1628 000:605.668 JLINK_WriteReg(R7, 0x00000000)
T1628 000:605.687 - 0.018ms returns 0
T1628 000:605.708 JLINK_WriteReg(R8, 0x00000000)
T1628 000:605.725 - 0.017ms returns 0
T1628 000:605.744 JLINK_WriteReg(R9, 0x200005B4)
T1628 000:605.762 - 0.017ms returns 0
T1628 000:605.781 JLINK_WriteReg(R10, 0x00000000)
T1628 000:605.798 - 0.017ms returns 0
T1628 000:605.817 JLINK_WriteReg(R11, 0x00000000)
T1628 000:605.834 - 0.017ms returns 0
T1628 000:605.854 JLINK_WriteReg(R12, 0x00000000)
T1628 000:605.870 - 0.016ms returns 0
T1628 000:605.890 JLINK_WriteReg(R13 (SP), 0x20002000)
T1628 000:605.909 - 0.019ms returns 0
T1628 000:605.929 JLINK_WriteReg(R14, 0x20000001)
T1628 000:605.946 - 0.017ms returns 0
T1628 000:605.965 JLINK_WriteReg(R15 (PC), 0x20000154)
T1628 000:605.983 - 0.017ms returns 0
T1628 000:606.002 JLINK_WriteReg(XPSR, 0x01000000)
T1628 000:606.019 - 0.017ms returns 0
T1628 000:606.048 JLINK_WriteReg(MSP, 0x20002000)
T1628 000:606.072 - 0.023ms returns 0
T1628 000:606.091 JLINK_WriteReg(PSP, 0x20002000)
T1628 000:606.109 - 0.017ms returns 0
T1628 000:606.128 JLINK_WriteReg(CFBP, 0x00000000)
T1628 000:606.145 - 0.017ms returns 0
T1628 000:606.168 JLINK_SetBPEx(Addr = 0x20000000, Type = 0xFFFFFFF2)
T1628 000:606.192 - 0.025ms returns 0x0000000B
T1628 000:606.212 JLINK_Go()
T1628 000:606.261   CPU_ReadMem(4 bytes @ 0xE0001000)
T1628 000:611.326 - 5.111ms
T1628 000:611.402 JLINK_IsHalted()
T1628 000:612.287 - 0.883ms returns FALSE
T1628 000:612.344 JLINK_HasError()
T1628 000:777.308 JLINK_IsHalted()
T1628 000:780.772   CPU_ReadMem(2 bytes @ 0x20000000)
T1628 000:781.417 - 4.108ms returns TRUE
T1628 000:781.432 JLINK_ReadReg(R15 (PC))
T1628 000:781.439 - 0.007ms returns 0x20000000
T1628 000:781.444 JLINK_ClrBPEx(BPHandle = 0x0000000B)
T1628 000:781.448 - 0.004ms returns 0x00
T1628 000:781.453 JLINK_ReadReg(R0)
T1628 000:781.456 - 0.003ms returns 0x00000000
T1628 000:781.861 JLINK_WriteMem(0x200005C8, 0x238 Bytes, ...)
T1628 000:781.867   Data:  BD E8 FC 87 68 46 79 DF 00 28 F9 D1 20 88 03 21 ...
T1628 000:781.881   CPU_WriteMem(568 bytes @ 0x200005C8)
T1628 000:789.182 - 7.320ms returns 0x238
T1628 000:789.216 JLINK_WriteMem(0x20000800, 0x400 Bytes, ...)
T1628 000:789.222   Data:  A4 F8 14 04 04 F2 14 42 39 46 28 46 FF F7 C0 FE ...
T1628 000:789.243   CPU_WriteMem(1024 bytes @ 0x20000800)
T1628 000:801.700 - 12.482ms returns 0x400
T1628 000:801.765 JLINK_WriteMem(0x20000C00, 0x400 Bytes, ...)
T1628 000:801.777   Data:  28 44 DD F8 01 10 01 60 BD F8 05 10 81 80 20 88 ...
T1628 000:801.812   CPU_WriteMem(1024 bytes @ 0x20000C00)
T1628 000:814.763 - 12.994ms returns 0x400
T1628 000:814.890 JLINK_WriteMem(0x20001000, 0x400 Bytes, ...)
T1628 000:814.913   Data:  86 E8 2D 00 5B D0 E9 B3 08 68 A0 61 21 46 08 A8 ...
T1628 000:814.984   CPU_WriteMem(1024 bytes @ 0x20001000)
T1628 000:827.800 - 12.908ms returns 0x400
T1628 000:827.886 JLINK_WriteMem(0x20001400, 0x1C8 Bytes, ...)
T1628 000:827.901   Data:  2A 55 F9 E7 42 70 F7 E7 82 70 F5 E7 C0 33 00 20 ...
T1628 000:827.947   CPU_WriteMem(456 bytes @ 0x20001400)
T1628 000:834.360 - 6.471ms returns 0x1C8
T1628 000:834.484 JLINK_HasError()
T1628 000:834.514 JLINK_WriteReg(R0, 0x00028000)
T1628 000:834.551 - 0.037ms returns 0
T1628 000:834.572 JLINK_WriteReg(R1, 0x00001000)
T1628 000:834.590 - 0.018ms returns 0
T1628 000:834.611 JLINK_WriteReg(R2, 0x200005C8)
T1628 000:834.628 - 0.017ms returns 0
T1628 000:834.653 JLINK_WriteReg(R3, 0x00000000)
T1628 000:834.671 - 0.017ms returns 0
T1628 000:834.696 JLINK_WriteReg(R4, 0x00000000)
T1628 000:834.713 - 0.017ms returns 0
T1628 000:834.746 JLINK_WriteReg(R5, 0x00000000)
T1628 000:834.765 - 0.019ms returns 0
T1628 000:834.785 JLINK_WriteReg(R6, 0x00000000)
T1628 000:834.802 - 0.017ms returns 0
T1628 000:834.822 JLINK_WriteReg(R7, 0x00000000)
T1628 000:834.839 - 0.017ms returns 0
T1628 000:834.859 JLINK_WriteReg(R8, 0x00000000)
T1628 000:834.876 - 0.017ms returns 0
T1628 000:835.156 JLINK_WriteReg(R9, 0x200005B4)
T1628 000:835.227 - 0.072ms returns 0
T1628 000:835.252 JLINK_WriteReg(R10, 0x00000000)
T1628 000:835.271 - 0.019ms returns 0
T1628 000:835.292 JLINK_WriteReg(R11, 0x00000000)
T1628 000:835.310 - 0.017ms returns 0
T1628 000:835.329 JLINK_WriteReg(R12, 0x00000000)
T1628 000:835.346 - 0.016ms returns 0
T1628 000:835.366 JLINK_WriteReg(R13 (SP), 0x20002000)
T1628 000:835.385 - 0.020ms returns 0
T1628 000:835.405 JLINK_WriteReg(R14, 0x20000001)
T1628 000:835.422 - 0.017ms returns 0
T1628 000:835.442 JLINK_WriteReg(R15 (PC), 0x20000154)
T1628 000:835.459 - 0.017ms returns 0
T1628 000:835.479 JLINK_WriteReg(XPSR, 0x01000000)
T1628 000:835.497 - 0.017ms returns 0
T1628 000:835.601 JLINK_WriteReg(MSP, 0x20002000)
T1628 000:835.624 - 0.022ms returns 0
T1628 000:835.644 JLINK_WriteReg(PSP, 0x20002000)
T1628 000:835.662 - 0.017ms returns 0
T1628 000:835.682 JLINK_WriteReg(CFBP, 0x00000000)
T1628 000:835.699 - 0.017ms returns 0
T1628 000:835.732 JLINK_SetBPEx(Addr = 0x20000000, Type = 0xFFFFFFF2)
T1628 000:835.763 - 0.032ms returns 0x0000000C
T1628 000:835.783 JLINK_Go()
T1628 000:835.835   CPU_ReadMem(4 bytes @ 0xE0001000)
T1628 000:840.279 - 4.493ms
T1628 000:840.338 JLINK_IsHalted()
T1628 000:841.244 - 0.905ms returns FALSE
T1628 000:841.289 JLINK_HasError()
T1628 000:854.825 JLINK_IsHalted()
T1628 000:855.527 - 0.700ms returns FALSE
T1628 000:855.563 JLINK_HasError()
T1628 000:870.343 JLINK_IsHalted()
T1628 000:870.920 - 0.576ms returns FALSE
T1628 000:871.079 JLINK_HasError()
T1628 000:885.650 JLINK_IsHalted()
T1628 000:886.379 - 0.727ms returns FALSE
T1628 000:886.452 JLINK_HasError()
T1628 000:900.552 JLINK_IsHalted()
T1628 000:901.532 - 0.978ms returns FALSE
T1628 000:901.607 JLINK_HasError()
T1628 000:915.870 JLINK_IsHalted()
T1628 000:920.059   CPU_ReadMem(2 bytes @ 0x20000000)
T1628 000:920.949 - 5.078ms returns TRUE
T1628 000:921.003 JLINK_ReadReg(R15 (PC))
T1628 000:921.029 - 0.026ms returns 0x20000000
T1628 000:921.047 JLINK_ClrBPEx(BPHandle = 0x0000000C)
T1628 000:921.063 - 0.016ms returns 0x00
T1628 000:921.080 JLINK_ReadReg(R0)
T1628 000:921.095 - 0.014ms returns 0x00000000
T1628 000:922.677 JLINK_WriteMem(0x200005C8, 0x238 Bytes, ...)
T1628 000:922.705   Data:  51 E0 25 70 3D E0 84 F8 01 80 01 20 FF F7 FC FD ...
T1628 000:922.747   CPU_WriteMem(568 bytes @ 0x200005C8)
T1628 000:930.101 - 7.421ms returns 0x238
T1628 000:930.186 JLINK_WriteMem(0x20000800, 0x400 Bytes, ...)
T1628 000:930.205   Data:  90 F9 30 00 70 47 00 00 D0 34 00 20 2D E9 F0 43 ...
T1628 000:930.265   CPU_WriteMem(1024 bytes @ 0x20000800)
T1628 000:942.885 - 12.698ms returns 0x400
T1628 000:942.954 JLINK_WriteMem(0x20000C00, 0x400 Bytes, ...)
T1628 000:942.966   Data:  08 43 03 D0 BD E8 70 40 03 F0 84 BA 70 BD 00 00 ...
T1628 000:943.005   CPU_WriteMem(1024 bytes @ 0x20000C00)
T1628 000:955.454 - 12.497ms returns 0x400
T1628 000:955.542 JLINK_WriteMem(0x20001000, 0x400 Bytes, ...)
T1628 000:955.558   Data:  C5 F9 20 46 10 BD 00 00 0C 48 4A 88 43 88 9A 42 ...
T1628 000:955.607   CPU_WriteMem(1024 bytes @ 0x20001000)
T1628 000:968.021 - 12.478ms returns 0x400
T1628 000:968.075 JLINK_WriteMem(0x20001400, 0x1C8 Bytes, ...)
T1628 000:968.086   Data:  AB FF FD F7 0B FF 08 B1 FD F7 C2 FE 62 49 03 20 ...
T1628 000:968.118   CPU_WriteMem(456 bytes @ 0x20001400)
T1628 000:974.016 - 5.939ms returns 0x1C8
T1628 000:974.071 JLINK_HasError()
T1628 000:974.101 JLINK_WriteReg(R0, 0x00029000)
T1628 000:974.121 - 0.020ms returns 0
T1628 000:974.136 JLINK_WriteReg(R1, 0x00001000)
T1628 000:974.148 - 0.012ms returns 0
T1628 000:974.167 JLINK_WriteReg(R2, 0x200005C8)
T1628 000:974.179 - 0.012ms returns 0
T1628 000:974.192 JLINK_WriteReg(R3, 0x00000000)
T1628 000:974.203 - 0.011ms returns 0
T1628 000:974.216 JLINK_WriteReg(R4, 0x00000000)
T1628 000:974.227 - 0.011ms returns 0
T1628 000:974.240 JLINK_WriteReg(R5, 0x00000000)
T1628 000:974.251 - 0.011ms returns 0
T1628 000:974.269 JLINK_WriteReg(R6, 0x00000000)
T1628 000:974.281 - 0.012ms returns 0
T1628 000:974.299 JLINK_WriteReg(R7, 0x00000000)
T1628 000:974.311 - 0.011ms returns 0
T1628 000:974.324 JLINK_WriteReg(R8, 0x00000000)
T1628 000:974.337 - 0.013ms returns 0
T1628 000:974.349 JLINK_WriteReg(R9, 0x200005B4)
T1628 000:974.359 - 0.009ms returns 0
T1628 000:974.366 JLINK_WriteReg(R10, 0x00000000)
T1628 000:974.372 - 0.006ms returns 0
T1628 000:974.440 JLINK_WriteReg(R11, 0x00000000)
T1628 000:974.461 - 0.021ms returns 0
T1628 000:974.469 JLINK_WriteReg(R12, 0x00000000)
T1628 000:974.475 - 0.006ms returns 0
T1628 000:974.482 JLINK_WriteReg(R13 (SP), 0x20002000)
T1628 000:974.489 - 0.007ms returns 0
T1628 000:974.496 JLINK_WriteReg(R14, 0x20000001)
T1628 000:974.502 - 0.006ms returns 0
T1628 000:974.509 JLINK_WriteReg(R15 (PC), 0x20000154)
T1628 000:974.515 - 0.006ms returns 0
T1628 000:974.522 JLINK_WriteReg(XPSR, 0x01000000)
T1628 000:974.528 - 0.006ms returns 0
T1628 000:974.535 JLINK_WriteReg(MSP, 0x20002000)
T1628 000:974.541 - 0.005ms returns 0
T1628 000:974.550 JLINK_WriteReg(PSP, 0x20002000)
T1628 000:974.558 - 0.007ms returns 0
T1628 000:974.564 JLINK_WriteReg(CFBP, 0x00000000)
T1628 000:974.570 - 0.005ms returns 0
T1628 000:974.578 JLINK_SetBPEx(Addr = 0x20000000, Type = 0xFFFFFFF2)
T1628 000:974.586 - 0.008ms returns 0x0000000D
T1628 000:974.593 JLINK_Go()
T1628 000:974.609   CPU_ReadMem(4 bytes @ 0xE0001000)
T1628 000:978.624 - 4.030ms
T1628 000:978.641 JLINK_IsHalted()
T1628 000:979.351 - 0.709ms returns FALSE
T1628 000:979.370 JLINK_HasError()
T1628 000:991.562 JLINK_IsHalted()
T1628 000:992.281 - 0.718ms returns FALSE
T1628 000:992.310 JLINK_HasError()
T1628 001:006.937 JLINK_IsHalted()
T1628 001:007.500 - 0.561ms returns FALSE
T1628 001:007.527 JLINK_HasError()
T1628 001:022.350 JLINK_IsHalted()
T1628 001:023.072 - 0.721ms returns FALSE
T1628 001:023.113 JLINK_HasError()
T1628 001:037.216 JLINK_IsHalted()
T1628 001:037.995 - 0.776ms returns FALSE
T1628 001:038.079 JLINK_HasError()
T1628 001:052.670 JLINK_IsHalted()
T1628 001:056.394   CPU_ReadMem(2 bytes @ 0x20000000)
T1628 001:057.173 - 4.501ms returns TRUE
T1628 001:057.219 JLINK_ReadReg(R15 (PC))
T1628 001:057.314 - 0.094ms returns 0x20000000
T1628 001:057.334 JLINK_ClrBPEx(BPHandle = 0x0000000D)
T1628 001:057.351 - 0.017ms returns 0x00
T1628 001:057.366 JLINK_ReadReg(R0)
T1628 001:057.380 - 0.013ms returns 0x00000000
T1628 001:059.564 JLINK_WriteMem(0x200005C8, 0x238 Bytes, ...)
T1628 001:059.590   Data:  52 54 20 73 74 61 72 74 65 64 2E 0D 0A 00 00 00 ...
T1628 001:059.623   CPU_WriteMem(568 bytes @ 0x200005C8)
T1628 001:067.155 - 7.590ms returns 0x238
T1628 001:067.212 JLINK_WriteMem(0x20000800, 0x400 Bytes, ...)
T1628 001:067.223   Data:  70 BD 10 B5 0A 88 49 88 8A 42 03 D1 FD F7 28 F8 ...
T1628 001:067.262   CPU_WriteMem(1024 bytes @ 0x20000800)
T1628 001:080.133 - 12.920ms returns 0x400
